Circuit: * I:\LTSpice\GmUsingTrans.asc

Ignoring BSIM parameter XL
Ignoring BSIM parameter XW
Ignoring BSIM parameter XL
Ignoring BSIM parameter XW
WARNING: Node VN is floating.
WARNING: Node VP is floating.

WARNING: Less than two connections to node VN.  This node is used by E4.
WARNING: Less than two connections to node VP.  This node is used by E5.
Warning: Pd = 0 is less than W.
Warning: Ps = 0 is less than W.
Warning: Pd = 0 is less than W.
Warning: Ps = 0 is less than W.
Direct Newton iteration for .op point succeeded.
Semiconductor Device Operating Points:
                        --- BSIM3 MOSFETS ---
Name:        m2          m1          m4          m3
Model:     mypmos      mypmos      mynmos      mynmos
Id:        1.00e-04    1.00e-04    1.00e-04    1.00e-04
Vgs:       7.44e-01    7.44e-01    1.07e+00    1.07e+00
Vds:       1.70e+00    1.70e+00    1.07e+00    1.07e+00
Vbs:       1.70e+00    1.70e+00   -5.25e-01   -5.25e-01
Vth:      -7.94e-01   -7.94e-01    8.74e-01    8.74e-01
Vdsat:    -1.69e-01   -1.69e-01    1.68e-01    1.68e-01
Gm:        9.62e-04    9.62e-04    1.00e-03    1.00e-03
Gds:       1.61e-05    1.61e-05    1.47e-05    1.47e-05
Gmb        1.94e-04    1.94e-04    2.17e-04    2.17e-04
Cbd:       0.00e+00    0.00e+00    0.00e+00    0.00e+00
Cbs:       0.00e+00    0.00e+00    0.00e+00    0.00e+00
Cgsov:     1.12e-14    1.12e-14    4.20e-15    4.20e-15
Cgdov:     1.12e-14    1.12e-14    4.20e-15    4.20e-15
Cgbov:     7.00e-16    7.00e-16    1.81e-16    1.81e-16
dQgdVgb:   1.16e-13    1.16e-13    3.25e-14    3.25e-14
dQgdVdb:  -1.03e-14   -1.03e-14   -4.05e-15   -4.05e-15
dQgdVsb:  -9.77e-14   -9.77e-14   -2.62e-14   -2.62e-14
dQddVgb:  -4.92e-14   -4.92e-14   -1.40e-14   -1.40e-14
dQddVdb:   1.07e-14    1.07e-14    4.12e-15    4.12e-15
dQddVsb:   4.66e-14    4.66e-14    1.23e-14    1.23e-14
dQbdVgb:  -1.71e-14   -1.71e-14   -4.42e-15   -4.42e-15
dQbdVdb:   7.71e-17    7.71e-17    1.65e-17    1.65e-17
dQbdVsb:  -6.79e-15   -6.79e-15   -2.53e-15   -2.53e-15



Date: Tue Apr 30 12:22:29 2019
Total elapsed time: 0.117 seconds.

tnom = 27
temp = 27
method = trap
totiter = 13
traniter = 0
tranpoints = 0
accept = 0
rejected = 0
matrix size = 19
fillins = 13
solver = Normal
Matrix Compiler1: 1.23 KB object code size
Matrix Compiler2: 1.54 KB object code size
